base starting...
STATUS		 = 0x0e RX_DR=0 TX_DS=0 MAX_RT=0 RX_P_NO=7 TX_FULL=0
RX_ADDR_P0-1	 = 0xbb00000002 0xbb00000001
RX_ADDR_P2-5	 = 0xc3 0xc4 0xc5 0xc6
TX_ADDR		 = 0xbb00000002
RX_PW_P0-5	 = 0x20 0x20 0x00 0x00 0x00 0x00
EN_AA		 = 0x3f
EN_RXADDR	 = 0x03
RF_CH		 = 0x25
RF_SETUP	 = 0x27
CONFIG		 = 0x0b
DYNPD/FEATURE	 = 0x3f 0x04
Data Rate	 = 250KBPS
Model		 = nRF24L01+
CRC Length	 = 8 bits
PA Power	 = PA_MAX
3 0 28b05ed002000060 7 2425 473
{ host: 'api.thingspeak.com',
  port: 80,
  path: '/update?api_key=OG6J10LJ8KIVBVXA&field1=24.25&field2=4.73' }
<Buffer 32 31>
3 0 28b05ed002000060 8 2425 473
{ host: 'api.thingspeak.com',
  port: 80,
  path: '/update?api_key=OG6J10LJ8KIVBVXA&field1=24.25&field2=4.73' }
<Buffer 32 32>
3 0 28b05ed002000060 9 2425 473
{ host: 'api.thingspeak.com',
  port: 80,
  path: '/update?api_key=OG6J10LJ8KIVBVXA&field1=24.25&field2=4.73' }
<Buffer 32 33>
{ tx_ok: 0, tx_fail: 0, rx_ready: 64 }
rien a faire
3 0 28b05ed002000060 2 2425 475
{ host: 'api.thingspeak.com',
  port: 80,
  path: '/update?api_key=OG6J10LJ8KIVBVXA&field1=24.25&field2=4.75' }
<Buffer 32 35>
{ tx_ok: 0, tx_fail: 0, rx_ready: 0 }
rien a faire
{ tx_ok: 0, tx_fail: 0, rx_ready: 64 }
rien a faire
3 0 28b05ed002000060 5 2425 473
{ host: 'api.thingspeak.com',
  port: 80,
  path: '/update?api_key=OG6J10LJ8KIVBVXA&field1=24.25&field2=4.73' }
<Buffer 32 38>
{ tx_ok: 0, tx_fail: 0, rx_ready: 64 }
rien a faire
{ tx_ok: 0, tx_fail: 0, rx_ready: 64 }
rien a faire
{ tx_ok: 0, tx_fail: 0, rx_ready: 0 }
rien a faire
{ tx_ok: 0, tx_fail: 0, rx_ready: 64 }
rien a faire
3 0 28b05ed002000060 10 2425 471
{ host: 'api.thingspeak.com',
  port: 80,
  path: '/update?api_key=OG6J10LJ8KIVBVXA&field1=24.25&field2=4.71' }
<Buffer 33 33>
{ tx_ok: 0, tx_fail: 0, rx_ready: 64 }
rien a faire
3 0 28b05ed002000060 12 2425 473
{ host: 'api.thingspeak.com',
  port: 80,
  path: '/update?api_key=OG6J10LJ8KIVBVXA&field1=24.25&field2=4.73' }
<Buffer 33 35>
